time	V(vdrain)	V(vdrain_totem)	V(vgate)	V(vgate_totem)	Id(Mosfet)	Id(Mosfet_totem)
0.000000000000000e+00	1.200000e+01	1.200000e+01	0.000000e+00	1.195305e-03	1.243450e-11	1.243450e-11
1.953124890551744e-13	1.200000e+01	1.200000e+01	9.191720e-07	1.195317e-03	1.262634e-11	2.514611e-11
3.906249781103488e-13	1.200000e+01	1.200000e+01	1.838380e-06	1.195333e-03	1.208646e-11	2.539265e-11
7.812499562206976e-13	1.200000e+01	1.200000e+01	3.676945e-06	1.195375e-03	1.538994e-11	1.632393e-11
1.562499912441395e-12	1.200000e+01	1.200000e+01	7.354695e-06	1.195494e-03	1.269638e-11	9.530637e-12
3.124999824882790e-12	1.200000e+01	1.200000e+01	1.471271e-05	1.195845e-03	-2.410438e-12	9.555257e-12
6.249999649765581e-12	1.200000e+01	1.200000e+01	2.943872e-05	1.196919e-03	-3.739718e-11	8.939694e-12
1.249999929953116e-11	1.200000e+01	1.200000e+01	5.893064e-05	1.200302e-03	-1.705376e-10	-2.826256e-12
2.499999859906232e-11	1.200000e+01	1.200000e+01	1.180740e-04	1.210851e-03	-6.900518e-10	-7.095230e-11
4.999999719812465e-11	1.200000e+01	1.200000e+01	2.369990e-04	1.241755e-03	-2.729352e-09	-4.700998e-10
9.999999439624929e-11	1.200000e+01	1.200000e+01	4.770657e-04	1.322766e-03	-1.028669e-08	-2.421835e-09
1.753397118994356e-10	1.200001e+01	1.200000e+01	8.439648e-04	1.466992e-03	-2.978189e-08	-8.490042e-09
2.770352091087612e-10	1.200002e+01	1.200001e+01	1.350054e-03	1.684104e-03	-7.308844e-08	-2.391371e-08
4.417750504504391e-10	1.200004e+01	1.200002e+01	2.199300e-03	2.071612e-03	-1.892946e-07	-7.001341e-08
7.568711465964798e-10	1.200012e+01	1.200005e+01	3.912822e-03	2.897082e-03	-5.509013e-07	-2.258877e-07
1.217721987081397e-09	1.200030e+01	1.200013e+01	6.609396e-03	4.257212e-03	-1.376447e-06	-6.052546e-07
1.801333182606708e-09	1.200066e+01	1.200031e+01	1.038859e-02	6.229729e-03	-2.986936e-06	-1.386308e-06
2.750664016073083e-09	1.200155e+01	1.200076e+01	1.747487e-02	1.000387e-02	-7.050628e-06	-3.446281e-06
4.430961829918758e-09	1.200404e+01	1.200206e+01	3.273099e-02	1.821755e-02	-1.836456e-05	-9.371595e-06
7.260512185758192e-09	1.201051e+01	1.200553e+01	6.535602e-02	3.599204e-02	-4.777374e-05	-2.513330e-05
1.106308365259956e-08	1.202332e+01	1.201256e+01	1.220148e-01	6.762899e-02	-1.060045e-04	-5.709147e-05
1.565954418680163e-08	1.204458e+01	1.202484e+01	2.089693e-01	1.201845e-01	-2.026545e-04	-1.128934e-04
2.006419470144904e-08	1.207001e+01	1.204359e+01	3.088450e-01	2.327054e-01	-3.182419e-04	-1.981160e-04
2.209884920580027e-08	1.208364e+01	1.206303e+01	3.612687e-01	4.039809e-01	-3.801588e-04	-2.864900e-04
2.344782486856786e-08	1.209355e+01	1.209065e+01	3.990410e-01	6.314443e-01	-4.252135e-04	-4.120386e-04
2.473463965317093e-08	1.210354e+01	1.213354e+01	4.369501e-01	9.096326e-01	-4.706373e-04	-6.080751e-04
2.606164511797061e-08	1.211434e+01	1.219315e+01	4.777992e-01	1.221689e+00	-5.197366e-04	-8.801501e-04
2.758357612070852e-08	1.212743e+01	1.227927e+01	5.271468e-01	1.605316e+00	-5.792181e-04	-1.272867e-03
3.031390676512585e-08	1.215252e+01	1.246597e+01	6.215906e-01	2.331468e+00	-6.933081e-04	-2.123738e-03
3.389425037597901e-08	1.218829e+01	1.275000e+01	7.560409e-01	3.322925e+00	-8.558577e-04	-3.412358e-03
3.876967294686454e-08	1.224091e+01	1.309218e+01	9.539394e-01	4.700411e+00	-1.095048e-03	-4.964019e-03
4.076938857645509e-08	1.226389e+01	1.273778e+01	1.040458e+00	5.257754e+00	-1.199499e-03	-3.352978e-03
4.207232736160534e-08	1.227958e+01	1.142173e+01	1.099637e+00	5.597451e+00	-1.270835e-03	3.444798e-03
4.347267411580441e-08	1.229690e+01	8.787788e+00	1.165032e+00	5.931495e+00	-1.349562e-03	1.631542e-02
4.453083899423666e-08	1.231027e+01	6.709430e+00	1.215559e+00	6.167690e+00	-1.410320e-03	2.491016e-02
4.554310025646964e-08	1.232331e+01	5.249886e+00	1.264911e+00	6.383481e+00	-1.469591e-03	3.007257e-02
4.665404816711927e-08	1.233788e+01	4.246534e+00	1.320120e+00	6.613017e+00	-1.535817e-03	3.393105e-02
4.779587651329614e-08	1.235311e+01	3.530768e+00	1.377902e+00	6.842714e+00	-1.605044e-03	3.790604e-02
4.872562809196184e-08	1.236573e+01	3.024669e+00	1.425844e+00	7.023614e+00	-1.662405e-03	4.079464e-02
5.000000000000000e-08	1.238325e+01	2.341727e+00	1.492471e+00	7.265339e+00	-1.742042e-03	4.390124e-02
5.012743719080382e-08	1.238502e+01	2.270963e+00	1.498624e+00	7.287665e+00	-1.750092e-03	4.422254e-02
5.038231157241145e-08	1.238855e+01	2.128217e+00	1.510918e+00	7.331453e+00	-1.766152e-03	4.487137e-02
5.089206033562672e-08	1.239558e+01	1.836409e+00	1.535450e+00	7.413930e+00	-1.798078e-03	4.619782e-02
5.191155786205725e-08	1.240949e+01	1.234733e+00	1.584339e+00	7.563254e+00	-1.861322e-03	4.893287e-02
5.304578569926307e-08	1.242481e+01	5.570480e-01	1.638523e+00	7.713120e+00	-1.930961e-03	5.201343e-02
5.352161859777899e-08	1.243118e+01	2.957969e-01	1.661173e+00	7.772813e+00	-1.959898e-03	5.320095e-02
5.378917108801138e-08	1.243473e+01	1.850285e-01	1.673876e+00	7.807858e+00	-1.976056e-03	5.370443e-02
5.401185511768682e-08	1.243768e+01	1.280421e-01	1.684434e+00	7.839338e+00	-1.989451e-03	5.396345e-02
5.423194445072620e-08	1.244058e+01	9.526654e-02	1.694857e+00	7.871720e+00	-2.002651e-03	5.410670e-02
5.442393130569872e-08	1.244311e+01	7.805703e-02	1.703940e+00	7.900437e+00	-2.014133e-03	5.416522e-02
5.463621027329628e-08	1.244590e+01	6.594401e-02	1.713973e+00	7.932458e+00	-2.026794e-03	5.419616e-02
5.485009296699559e-08	1.244869e+01	5.752951e-02	1.724070e+00	7.964839e+00	-2.039512e-03	5.422392e-02
5.512748572046772e-08	1.245231e+01	4.968777e-02	1.737150e+00	8.006906e+00	-2.055952e-03	5.424935e-02
5.543879810883296e-08	1.245635e+01	4.319947e-02	1.751806e+00	8.054117e+00	-2.074326e-03	5.425300e-02
5.587727471302315e-08	1.246202e+01	3.649349e-02	1.772412e+00	8.120478e+00	-2.100076e-03	5.423395e-02
5.636295355865121e-08	1.246825e+01	3.107270e-02	1.795183e+00	8.193606e+00	-2.128419e-03	5.420296e-02
5.701870977166779e-08	1.247661e+01	2.580141e-02	1.825844e+00	8.291480e+00	-2.166399e-03	5.416828e-02
5.770270446919555e-08	1.248524e+01	2.183869e-02	1.857718e+00	8.392135e+00	-2.205654e-03	5.414667e-02
5.862478091830978e-08	1.249676e+01	1.801390e-02	1.900518e+00	8.525135e+00	-2.258008e-03	5.412441e-02
5.956668952440979e-08	1.250838e+01	1.520261e-02	1.944035e+00	8.657136e+00	-2.310802e-03	5.420490e-02
6.086611328355402e-08	1.252416e+01	1.242931e-02	2.003745e+00	8.832452e+00	-2.382556e-03	5.441022e-02
6.214207143465277e-08	1.253939e+01	1.046440e-02	2.062000e+00	8.996111e+00	-2.451763e-03	5.449789e-02
6.393070909085160e-08	1.256029e+01	8.490150e-03	2.143058e+00	9.211563e+00	-2.546794e-03	5.450686e-02
6.565681719491957e-08	1.258000e+01	7.101925e-03	2.220618e+00	9.403996e+00	-2.636342e-03	5.441904e-02
6.786968540564067e-08	1.260456e+01	5.813471e-03	2.319082e+00	9.628484e+00	-2.748017e-03	5.430422e-02
7.018612547023478e-08	1.262951e+01	4.817959e-03	2.421046e+00	9.839235e+00	-2.861388e-03	5.433705e-02
7.281417628699755e-08	1.265682e+01	3.984855e-03	2.535312e+00	1.004941e+01	-2.985555e-03	5.437294e-02
7.578927167988379e-08	1.268652e+01	3.285208e-03	2.662872e+00	1.025418e+01	-3.120555e-03	5.436953e-02
7.938591266704296e-08	1.272083e+01	2.657966e-03	2.814706e+00	1.046277e+01	-3.276516e-03	5.436440e-02
8.298156968453663e-08	1.275328e+01	2.201594e-03	2.963664e+00	1.063209e+01	-3.423985e-03	5.443397e-02
8.838788630412400e-08	1.279901e+01	1.711798e-03	3.182884e+00	1.083177e+01	-3.631863e-03	5.453767e-02
9.349954006398829e-08	1.283909e+01	1.385403e-03	3.385084e+00	1.097488e+01	-3.814040e-03	5.453916e-02
9.990206265028451e-08	1.288453e+01	1.109127e-03	3.631249e+00	1.110476e+01	-4.020574e-03	5.454041e-02
1.063571269766606e-07	1.290894e+01	9.178841e-04	3.870977e+00	1.119978e+01	-4.131522e-03	5.454128e-02
1.117542865241261e-07	1.280281e+01	8.070762e-04	4.054737e+00	1.125763e+01	-3.641604e-03	5.454179e-02
1.162542515504673e-07	1.237470e+01	7.405143e-04	4.172256e+00	1.129397e+01	-1.689417e-03	5.454209e-02
1.206196419221368e-07	1.147927e+01	6.919752e-04	4.234646e+00	1.132159e+01	2.406451e-03	5.454231e-02
1.250483799745547e-07	1.025404e+01	6.541714e-04	4.255741e+00	1.134400e+01	8.001992e-03	5.454248e-02
1.296222802059530e-07	8.993055e+00	6.247838e-04	4.258336e+00	1.136229e+01	1.370743e-02	5.454262e-02
1.363304404338504e-07	7.426381e+00	5.932436e-04	4.254783e+00	1.138307e+01	2.078729e-02	5.454276e-02
1.430868532435422e-07	6.224418e+00	5.709670e-04	4.248829e+00	1.139879e+01	2.620673e-02	5.454286e-02
1.517839127085809e-07	5.157970e+00	5.520257e-04	4.240327e+00	1.141337e+01	3.096528e-02	5.454294e-02
1.609544802736597e-07	4.426290e+00	5.393153e-04	4.233596e+00	1.142421e+01	3.429195e-02	5.454300e-02
1.729654792812169e-07	3.793361e+00	5.292926e-04	4.229426e+00	1.143390e+01	3.725720e-02	5.454305e-02
1.851150476364337e-07	3.308294e+00	5.234130e-04	4.228615e+00	1.144046e+01	3.950371e-02	5.454308e-02
2.016627322691059e-07	2.741501e+00	5.190476e-04	4.229614e+00	1.144631e+01	4.208406e-02	5.454310e-02
2.187389404465906e-07	2.193196e+00	5.166046e-04	4.231490e+00	1.145034e+01	4.457638e-02	5.454310e-02
2.382701904465906e-07	1.583562e+00	5.151364e-04	4.234217e+00	1.145347e+01	4.734745e-02	5.454311e-02
2.578014404465905e-07	9.805474e-01	5.143252e-04	4.237511e+00	1.145575e+01	5.008842e-02	5.454312e-02
2.773326904465905e-07	3.809274e-01	5.138391e-04	4.241586e+00	1.145756e+01	5.281552e-02	5.454312e-02
2.855673104547024e-07	1.430167e-01	5.136763e-04	4.251237e+00	1.145822e+01	5.389709e-02	5.454312e-02
2.896024508782317e-07	5.393462e-02	5.136626e-04	4.270856e+00	1.145852e+01	5.430013e-02	5.454312e-02
2.910226271715915e-07	3.757347e-02	5.136036e-04	4.285868e+00	1.145863e+01	5.436876e-02	5.454312e-02
2.922786620125135e-07	3.149213e-02	5.135972e-04	4.303652e+00	1.145872e+01	5.439128e-02	5.454312e-02
2.933878447636782e-07	2.797932e-02	5.135881e-04	4.320321e+00	1.145879e+01	5.441139e-02	5.454312e-02
2.946662522777333e-07	2.489230e-02	5.135570e-04	4.340002e+00	1.145889e+01	5.443104e-02	5.454312e-02
2.960640053575578e-07	2.218864e-02	5.135504e-04	4.361822e+00	1.145898e+01	5.444370e-02	5.454312e-02
2.975932585659820e-07	1.981403e-02	5.135216e-04	4.385935e+00	1.145909e+01	5.445449e-02	5.454312e-02
2.994060337282031e-07	1.756724e-02	5.135123e-04	4.414719e+00	1.145921e+01	5.446446e-02	5.454312e-02
3.015727076121671e-07	1.545576e-02	5.134786e-04	4.449279e+00	1.145936e+01	5.447347e-02	5.454312e-02
3.043101374161311e-07	1.341655e-02	5.134594e-04	4.493037e+00	1.145954e+01	5.448131e-02	5.454312e-02
3.079871039743154e-07	1.139659e-02	5.134154e-04	4.551774e+00	1.145978e+01	5.448716e-02	5.454312e-02
3.128936615372354e-07	9.459754e-03	5.133738e-04	4.629859e+00	1.146009e+01	5.449174e-02	5.454312e-02
3.181266241093921e-07	7.996882e-03	5.133268e-04	4.712562e+00	1.146042e+01	5.449666e-02	5.454312e-02
3.243496222393477e-07	6.772481e-03	5.132802e-04	4.809929e+00	1.146079e+01	5.450132e-02	5.454312e-02
3.316752369444834e-07	5.747067e-03	5.132254e-04	4.923073e+00	1.146122e+01	5.450405e-02	5.454312e-02
3.403515309033168e-07	4.883899e-03	5.131703e-04	5.054916e+00	1.146171e+01	5.450536e-02	5.454312e-02
3.506984209482009e-07	4.151610e-03	5.131078e-04	5.209054e+00	1.146228e+01	5.450573e-02	5.454312e-02
3.627918702199050e-07	3.543355e-03	5.130449e-04	5.384912e+00	1.146292e+01	5.450506e-02	5.454312e-02
3.775394000235120e-07	3.016287e-03	5.129738e-04	5.593270e+00	1.146367e+01	5.450337e-02	5.454312e-02
3.944732507909036e-07	2.584580e-03	5.129020e-04	5.824532e+00	1.146449e+01	5.450258e-02	5.454312e-02
4.140045007909036e-07	2.225463e-03	5.128261e-04	6.081282e+00	1.146541e+01	5.450575e-02	5.454312e-02
4.335357507909036e-07	1.959880e-03	5.127569e-04	6.327745e+00	1.146628e+01	5.451388e-02	5.454312e-02
4.530670007909036e-07	1.757896e-03	5.126927e-04	6.563974e+00	1.146713e+01	5.452269e-02	5.454313e-02
4.725982507909036e-07	1.599070e-03	5.126327e-04	6.790383e+00	1.146794e+01	5.452859e-02	5.454313e-02
4.921295007909037e-07	1.470949e-03	5.125760e-04	7.007375e+00	1.146873e+01	5.453223e-02	5.454312e-02
5.116607507909037e-07	1.365479e-03	5.125222e-04	7.215338e+00	1.146949e+01	5.453463e-02	5.454312e-02
5.311920007909038e-07	1.277199e-03	5.124708e-04	7.414645e+00	1.147023e+01	5.453629e-02	5.454312e-02
5.507232507909038e-07	1.202278e-03	5.124216e-04	7.605655e+00	1.147094e+01	5.453749e-02	5.454312e-02
5.702545007909039e-07	1.137945e-03	5.123744e-04	7.788713e+00	1.147164e+01	5.453838e-02	5.454312e-02
5.897857507909039e-07	1.082148e-03	5.123290e-04	7.964148e+00	1.147231e+01	5.453907e-02	5.454312e-02
6.093170007909040e-07	1.033333e-03	5.122853e-04	8.132277e+00	1.147297e+01	5.453961e-02	5.454312e-02
6.288482507909040e-07	9.903006e-04	5.122432e-04	8.293404e+00	1.147361e+01	5.454004e-02	5.454313e-02
6.483795007909041e-07	9.521130e-04	5.122024e-04	8.447819e+00	1.147424e+01	5.454040e-02	5.454313e-02
6.679107507909041e-07	9.180241e-04	5.121631e-04	8.595803e+00	1.147485e+01	5.454069e-02	5.454313e-02
6.874420007909042e-07	8.874331e-04	5.121250e-04	8.737624e+00	1.147544e+01	5.454094e-02	5.454313e-02
7.265045007909043e-07	8.348771e-04	5.120522e-04	9.003789e+00	1.147659e+01	5.454133e-02	5.454313e-02
7.850982507909044e-07	7.725229e-04	5.119509e-04	9.362884e+00	1.147822e+01	5.454174e-02	5.454313e-02
8.436920007909046e-07	7.243750e-04	5.118575e-04	9.678944e+00	1.147975e+01	5.454204e-02	5.454313e-02
9.022857507909047e-07	6.863521e-04	5.117711e-04	9.957127e+00	1.148120e+01	5.454225e-02	5.454313e-02
9.608795007909049e-07	6.557892e-04	5.116906e-04	1.020197e+01	1.148256e+01	5.454242e-02	5.454313e-02
1.019473250790905e-06	6.308719e-04	5.116152e-04	1.041747e+01	1.148385e+01	5.454255e-02	5.454313e-02
1.078067000790905e-06	6.103214e-04	5.115445e-04	1.060714e+01	1.148508e+01	5.454266e-02	5.454313e-02
1.136660750790905e-06	5.932106e-04	5.114779e-04	1.077408e+01	1.148626e+01	5.454274e-02	5.454313e-02
1.195254500790906e-06	5.788506e-04	5.114148e-04	1.092101e+01	1.148738e+01	5.454281e-02	5.454313e-02
1.253848250790906e-06	5.667191e-04	5.113551e-04	1.105033e+01	1.148845e+01	5.454287e-02	5.454313e-02
1.312442000790906e-06	5.564126e-04	5.112982e-04	1.116416e+01	1.148948e+01	5.454292e-02	5.454313e-02
1.371035750790906e-06	5.476149e-04	5.112441e-04	1.126434e+01	1.149047e+01	5.454296e-02	5.454313e-02
1.429629500790906e-06	5.400747e-04	5.111923e-04	1.135251e+01	1.149142e+01	5.454300e-02	5.454313e-02
1.488223250790906e-06	5.335896e-04	5.111429e-04	1.143011e+01	1.149234e+01	5.454303e-02	5.454313e-02
1.546817000790906e-06	5.279954e-04	5.110954e-04	1.149842e+01	1.149323e+01	5.454306e-02	5.454313e-02
1.605410750790907e-06	5.231573e-04	5.110498e-04	1.155853e+01	1.149408e+01	5.454308e-02	5.454313e-02
1.664004500790907e-06	5.189636e-04	5.110060e-04	1.161145e+01	1.149491e+01	5.454309e-02	5.454313e-02
1.722598250790907e-06	5.153216e-04	5.109638e-04	1.165802e+01	1.149572e+01	5.454311e-02	5.454313e-02
1.781192000790907e-06	5.121534e-04	5.109231e-04	1.169901e+01	1.149649e+01	5.454313e-02	5.454313e-02
1.839785750790907e-06	5.093933e-04	5.108838e-04	1.173508e+01	1.149725e+01	5.454314e-02	5.454313e-02
1.898379500790907e-06	5.069856e-04	5.108458e-04	1.176683e+01	1.149798e+01	5.454315e-02	5.454313e-02
1.956973250790908e-06	5.048831e-04	5.108090e-04	1.179478e+01	1.149870e+01	5.454316e-02	5.454313e-02
2.015567000790908e-06	5.030454e-04	5.107734e-04	1.181938e+01	1.149939e+01	5.454317e-02	5.454313e-02
2.074160750790908e-06	5.014376e-04	5.107388e-04	1.184103e+01	1.150006e+01	5.454317e-02	5.454313e-02
2.132754500790908e-06	5.000300e-04	5.107053e-04	1.186008e+01	1.150072e+01	5.454318e-02	5.454313e-02
2.191348250790908e-06	4.987969e-04	5.106727e-04	1.187685e+01	1.150136e+01	5.454319e-02	5.454313e-02
2.249942000790908e-06	4.977160e-04	5.106410e-04	1.189161e+01	1.150199e+01	5.454319e-02	5.454313e-02
2.308535750790908e-06	4.967680e-04	5.106102e-04	1.190460e+01	1.150260e+01	5.454320e-02	5.454313e-02
2.367129500790909e-06	4.959364e-04	5.105802e-04	1.191603e+01	1.150320e+01	5.454320e-02	5.454313e-02
2.425723250790909e-06	4.952064e-04	5.105510e-04	1.192610e+01	1.150378e+01	5.454320e-02	5.454313e-02
2.484317000790909e-06	4.945655e-04	5.105225e-04	1.193496e+01	1.150435e+01	5.454320e-02	5.454313e-02
2.542910750790909e-06	4.940026e-04	5.104947e-04	1.194275e+01	1.150491e+01	5.454321e-02	5.454313e-02
2.601504500790909e-06	4.935081e-04	5.104676e-04	1.194961e+01	1.150546e+01	5.454321e-02	5.454313e-02
2.660098250790909e-06	4.930736e-04	5.104410e-04	1.195565e+01	1.150599e+01	5.454321e-02	5.454313e-02
2.718692000790910e-06	4.926917e-04	5.104151e-04	1.196097e+01	1.150651e+01	5.454322e-02	5.454314e-02
2.777285750790910e-06	4.923560e-04	5.103898e-04	1.196565e+01	1.150703e+01	5.454322e-02	5.454314e-02
2.835879500790910e-06	4.920609e-04	5.103650e-04	1.196976e+01	1.150753e+01	5.454322e-02	5.454314e-02
2.894473250790910e-06	4.918015e-04	5.103408e-04	1.197339e+01	1.150802e+01	5.454322e-02	5.454314e-02
2.953067000790910e-06	4.915732e-04	5.103170e-04	1.197658e+01	1.150851e+01	5.454322e-02	5.454314e-02
3.011660750790910e-06	4.913726e-04	5.102938e-04	1.197938e+01	1.150898e+01	5.454322e-02	5.454314e-02
3.070254500790910e-06	4.911961e-04	5.102711e-04	1.198186e+01	1.150945e+01	5.454322e-02	5.454314e-02
3.128848250790911e-06	4.910408e-04	5.102487e-04	1.198403e+01	1.150991e+01	5.454322e-02	5.454314e-02
3.187442000790911e-06	4.909043e-04	5.102268e-04	1.198594e+01	1.151036e+01	5.454322e-02	5.454314e-02
3.246035750790911e-06	4.907841e-04	5.102053e-04	1.198763e+01	1.151080e+01	5.454322e-02	5.454314e-02
3.304629500790911e-06	4.906784e-04	5.101842e-04	1.198911e+01	1.151124e+01	5.454322e-02	5.454314e-02
3.363223250790911e-06	4.905854e-04	5.101635e-04	1.199042e+01	1.151166e+01	5.454322e-02	5.454314e-02
3.421817000790911e-06	4.905036e-04	5.101432e-04	1.199157e+01	1.151208e+01	5.454323e-02	5.454314e-02
3.480410750790911e-06	4.904316e-04	5.101232e-04	1.199258e+01	1.151250e+01	5.454323e-02	5.454314e-02
3.539004500790912e-06	4.903682e-04	5.101036e-04	1.199347e+01	1.151291e+01	5.454323e-02	5.454314e-02
3.597598250790912e-06	4.903125e-04	5.100843e-04	1.199425e+01	1.151331e+01	5.454323e-02	5.454314e-02
3.656192000790912e-06	4.902634e-04	5.100653e-04	1.199494e+01	1.151370e+01	5.454323e-02	5.454314e-02
3.714785750790912e-06	4.902202e-04	5.100467e-04	1.199555e+01	1.151409e+01	5.454323e-02	5.454314e-02
3.773379500790912e-06	4.901822e-04	5.100283e-04	1.199608e+01	1.151448e+01	5.454323e-02	5.454314e-02
3.831973250790912e-06	4.901488e-04	5.100102e-04	1.199655e+01	1.151485e+01	5.454323e-02	5.454314e-02
3.890567000790912e-06	4.901193e-04	5.099925e-04	1.199696e+01	1.151523e+01	5.454323e-02	5.454314e-02
3.949160750790912e-06	4.900934e-04	5.099750e-04	1.199733e+01	1.151559e+01	5.454323e-02	5.454314e-02
4.007754500790912e-06	4.900707e-04	5.099577e-04	1.199765e+01	1.151595e+01	5.454323e-02	5.454314e-02
4.066348250790913e-06	4.900506e-04	5.099407e-04	1.199793e+01	1.151631e+01	5.454323e-02	5.454314e-02
4.124942000790913e-06	4.900330e-04	5.099240e-04	1.199818e+01	1.151666e+01	5.454323e-02	5.454314e-02
4.183535750790913e-06	4.900174e-04	5.099075e-04	1.199840e+01	1.151701e+01	5.454323e-02	5.454314e-02
4.242129500790913e-06	4.900037e-04	5.098913e-04	1.199859e+01	1.151735e+01	5.454323e-02	5.454314e-02
4.300723250790913e-06	4.899917e-04	5.098752e-04	1.199876e+01	1.151769e+01	5.454323e-02	5.454314e-02
4.359317000790913e-06	4.899811e-04	5.098595e-04	1.199891e+01	1.151803e+01	5.454323e-02	5.454314e-02
4.417910750790914e-06	4.899718e-04	5.098439e-04	1.199904e+01	1.151835e+01	5.454323e-02	5.454314e-02
4.476504500790914e-06	4.899636e-04	5.098286e-04	1.199915e+01	1.151868e+01	5.454323e-02	5.454314e-02
4.535098250790914e-06	4.899564e-04	5.098134e-04	1.199925e+01	1.151900e+01	5.454323e-02	5.454314e-02
4.593692000790914e-06	4.899500e-04	5.097984e-04	1.199934e+01	1.151932e+01	5.454323e-02	5.454314e-02
4.652285750790914e-06	4.899444e-04	5.097837e-04	1.199942e+01	1.151963e+01	5.454323e-02	5.454314e-02
4.710879500790914e-06	4.899395e-04	5.097691e-04	1.199949e+01	1.151994e+01	5.454323e-02	5.454314e-02
4.769473250790914e-06	4.899352e-04	5.097547e-04	1.199955e+01	1.152025e+01	5.454323e-02	5.454314e-02
4.828067000790915e-06	4.899313e-04	5.097405e-04	1.199961e+01	1.152055e+01	5.454323e-02	5.454314e-02
4.886660750790915e-06	4.899280e-04	5.097265e-04	1.199965e+01	1.152085e+01	5.454323e-02	5.454314e-02
